 ****** HSPICE -- D-2010.03-SP2 32-BIT (Aug 26 2010) winnt ******               
  Copyright (C) 2010 Synopsys, Inc. All Rights Reserved.                        
  Unpublished-rights reserved under US copyright laws.
  This program is protected by law and is subject to the 
  terms and conditions of the license agreement from Synopsys.
  Use of this program is your acceptance to be bound by the 
  license agreement. HSPICE is the trademark of Synopsys, Inc.
  Input File: c:\for_hspice_code\project_file\hspice_on_vs_code\project\op amp\s
  lic:  
  lic: FLEXlm: v10.8 
  lic: USER:   User                 HOSTNAME: LAPTOP-5ELPVJPP 
  lic: HOSTID: "0205857feb80 2016b940a885 2016b940a886 2216b940a885" PID:      2
 0
  lic: Using FLEXlm license file: 
  lic: 27000@localhost 
  lic: Checkout 1 hspice 
  lic: License/Maintenance for hspice will expire on 31-dec-2028/2008.120 
  lic: 1(in_use)/999(total) FLOATING license(s) on SERVER localhost 
  lic:   
 Init: read install configuration file: C:\synopsys\Hspice_D-2010.03-SP2\meta.cfg
1****** HSPICE -- D-2010.03-SP2 32-BIT (Aug 26 2010) winnt ******               
 ******  
 ****

  ******  circuit name directory
 circuit number to circuit name directory
   number circuitname                     definition         multiplier
        0 main circuit
        1 x1.                             opamp              1.00 
  **info** (c:\for_hspice_code\project_file\hspice_on_vs_code\project\op amp\slew_rate.sp:37) DC voltage reset to initial transient source value              in source        0:vin2                new dc=  0.2000D+01
 ***************************************************************************
 ***        model parameters  model name:   0:p_33.1   model type:pmos   ***
 ***************************************************************************

   *** general parameters ***
    deriv=   0.           

   ***  level 49  model parameters  ***

       hspver=    2006.03               level=         49         
      version=        3.2            paramchk=          0         
       apwarn=          1                lite=          0         
       vgslim=          0             binUnit=          1         
       capMod=          2               xpart=          1         
       mobMod=          1              nqsMod=          0         
       stiMod=          0                 elm=          5         
     sfvtflag=          0                 tox=     7e-009 meter   
           xj=   1.8e-007 meter       binflag=          0         
         lmin=   3.5e-007 meter          lmax=     5e-005 meter   
         wmin=   2.5e-007 meter          wmax=     0.0001 meter   
         lref=          0 meter          wref=          0 meter   
         lint=2.23963e-008 meter          wint=3.36131e-008 meter   
        lmult=          1               wmult=          1         
           ll=3.34369e-018                 lln=    1.47874         
           lw=          0                 lwn=          1         
          lwl=-1.43441e-024                  wl=          0         
          wln=          1                  ww=-7.27358e-019         
          wwn=     1.6333                 wwl=9.74709e-026         
          dwg=-1.43712e-008 m/V             dwb=5.98392e-009 m/V^1/2 
           xl=    -1e-008                  xw=          0         
           a0=    1.07362                 ags=   0.213843 V^-1    
           b0=4.35813e-007 meter            b1=1.73788e-006 meter   
         keta= -0.0103469 V^-1           voff=  -0.223905 V       
        ngate=          0 cm^-3           vbx=          0 V       
          vbm=         -3 V                xt=  1.55e-007 meter   
         vth0=  -0.720436 V               nch=4.30962e+017 cm^-3   
         nsub=     6e+016 cm^-3           nlx=          0 meter   
       gamma1=          0 V^-1/2       gamma2=          0 V^-1/2  
           k1=   0.766742 V^1/2            k2=  0.0542866         
           k3=    2.08926                 k3b=    1.00284 V^-1    
           w0=2.22473e-007 meter          dvt0=    7.39473         
         dvt1=   0.963488                dvt2= 0.00780533 V^-1    
        dvt0w=    1.79697 meter^-1      dvt1w=2.87627e+006 meter^-1
        dvt2w=   0.202624 V^-1           dsub=   0.459428         
         eta0=  0.0542106                etab= -0.0189318 V^-1    
           u0= 0.00807585 m^2/V/sec         ua=-3.97828e-010 m/V     
           ub=1.69475e-018 (m/V)^2          uc=-3.64947e-011 V^-1    
         vsat=     100077 m/sec            a1=       0.01 v^-1    
           a2=   0.921225               delta=       0.01 V       
         rdsw=    627.019 ohm-um         prwg=  0.0334903 V^-1    
         prwb=  -0.772525 V^-1/2           wr=   0.991323         
         pclm=    0.61644             pdiblc1=  0.0122361         
      pdiblc2= 0.00035434             pdiblcb=   0.247788 V^-1    
       pscbe1=4.64276e+008 V/m          pscbe2=  2.87e-005 V/m     
        drout=   0.240141                pvag=    -0.2307         
      nfactor=   0.996415                cdsc= 0.00326567 f/m^2   
        cdscb= 0.00246304 f/V/m^2       cdscd=          0 f/V/m^2 
          cit=0.000533367 f/m^2        alpha0=          0 m/V     
        beta0=         30 V               dlc=2.23963e-008 meter   
          dwc=3.36131e-008 meter           clc=     1e-007 meter   
          cle=        0.6                cgso=   2.6e-010 f/m     
         cgdo=   2.6e-010 f/m            cgbo=     1e-010 f/m     
         cgsl=          0 f/m            cgdl=          0 f/m     
       ckappa=        0.6                  cf= 1.392e-010 f/m     
         acde=          1 m/V            moin=         15 V^1/2   
         toxm=     7e-009 m            dtoxcv=          0 m       
          vfb (not used)                alpha1=          0 1/V     
         ijth=          0 A              noff=          1         
       voffcv=          0                 tcj=          0 1/K     
        tcjsw=          0 1/K          tcjswg=          0 1/K     
          tpb=          0 V/K           tpbsw=          0 V/K     
       tpbswg=          0 V/K             llc=3.34369e-018         
          lwc=          0                lwlc=-1.43441e-024         
          wlc=          0                 wwc=-7.27358e-019         
         wwlc=9.74709e-026                tnom=     300.15 K       
          kt1=  -0.334587 V              kt1l=     1e-008         
          kt2= -0.0574752                 ute=   -1.22772         
          ua1=1.4019e-009 m/V             ub1=-3.4172e-018 (m/V)^2 
          uc1=-1.3931e-010 m/V^2            at=      49500 m/s     
          prt=          0         
          using Berkeley noise model       noiMod=          1         
         noia=   9.9e+018                noib=       2400         
         noic=   1.4e-012                  em=   4.1e+007         
           ef=          1                  af=          1         
           kf=          0              gdsnoi=-1.23457e-029         
          using Hspice diodes            using ACM 
          acm=         3                 hdif=  3.2e-007 meter    
         ldif=         0 meter             js=    9e-005 amp/m^2  
          jsw=  4.9e-012 amp/m            xti=         0          
            n=         1                   cj=0.00129981 f/m^2    
           mj=  0.409694                   pb=  0.761753 V        
         cjsw=2.24324e-010 f/m             mjsw=  0.474468          
          php=  0.929663 V               pbsw (not used)           
       cjgate=2.24324e-010 f/m            cjswg (not used)           
        mjswg (not used)                 pbswg (not used)           
 ***************************************************************************
 ***        model parameters  model name:   0:n_33.1   model type:nmos   ***
 ***************************************************************************

   *** general parameters ***
    deriv=   0.           

   ***  level 49  model parameters  ***

       hspver=    2006.03               level=         49         
      version=        3.2            paramchk=          0         
       apwarn=          1                lite=          0         
       vgslim=          0             binUnit=          2         
       capMod=          2               xpart=          1         
       mobMod=          1              nqsMod=          0         
       stiMod=          0                 elm=          5         
     sfvtflag=          0                 tox=     7e-009 meter   
           xj=   2.5e-007 meter       binflag=          0         
         lmin=   3.5e-007 meter          lmax=     5e-005 meter   
         wmin=   2.5e-007 meter          wmax=     0.0001 meter   
         lref=          0 meter          wref=          0 meter   
         lint=          0 meter          wint=          0 meter   
        lmult=          1               wmult=          1         
           ll=1.21422e-014                 lln=          1         
           lw=          0                 lwn=          1         
          lwl=-2.88567e-022                  wl=          0         
          wln=          1                  ww=-2.00971e-016         
          wwn=          1                 wwl=-1.50178e-021         
          dwg=3.55271e-015 m/V             dwb=   6.2e-009 m/V^1/2 
           xl=   2.2e-008                  xw=          0         
           a0=    1.27527                 ags=   0.267851 V^-1    
           b0=     1e-008 meter            b1=     9e-007 meter   
         keta=      0.005 V^-1           voff=  -0.236086 V       
        ngate=          0 cm^-3           vbx=          0 V       
          vbm=         -3 V                xt=  1.55e-007 meter   
         vth0=   0.592407 V               nch=   1.7e+017 cm^-3   
         nsub=     6e+016 cm^-3           nlx=1.25083e-007 meter   
       gamma1=          0 V^-1/2       gamma2=          0 V^-1/2  
           k1=   0.713754 V^1/2            k2= -0.0258269         
           k3=         62                 k3b=         32 V^-1    
           w0=  5.68e-006 meter          dvt0=     4.7502         
         dvt1=    0.63402                dvt2=  -0.213923 V^-1    
        dvt0w=       0.25 meter^-1      dvt1w=     595000 meter^-1
        dvt2w=          0 V^-1           dsub=      0.521         
         eta0=   0.208078                etab=    -0.0015 V^-1    
           u0=  0.0341296 m^2/V/sec         ua=-5.85469e-010 m/V     
           ub=1.65189e-018 (m/V)^2          uc=5.51773e-011 V^-1    
         vsat=      98280 m/sec            a1=       0.01 v^-1    
           a2=       0.99               delta=       0.01 V       
         rdsw=    595.911 ohm-um         prwg=  0.0230686 V^-1    
         prwb=  0.0571548 V^-1/2           wr=          1         
         pclm=     0.6318             pdiblc1= 0.00094999         
      pdiblc2=      0.001             pdiblcb=          0 V^-1    
       pscbe1=  4.24e+008 V/m          pscbe2=     1e-005 V/m     
        drout=       0.56                pvag=          0         
      nfactor=          1                cdsc=    0.00024 f/m^2   
        cdscb=          0 f/V/m^2       cdscd=    0.00024 f/V/m^2 
          cit=          0 f/m^2        alpha0=          0 m/V     
        beta0=         30 V               dlc=          0 meter   
          dwc=          0 meter           clc=     1e-007 meter   
          cle=        0.6                cgso=   2.7e-010 f/m     
         cgdo=   2.7e-010 f/m            cgbo=     1e-010 f/m     
         cgsl=          0 f/m            cgdl=          0 f/m     
       ckappa=        0.6                  cf= 1.392e-010 f/m     
         acde=          1 m/V            moin=         15 V^1/2   
         toxm=     7e-009 m            dtoxcv=          0 m       
          vfb (not used)                alpha1=          0 1/V     
         ijth=          0 A              noff=          1         
       voffcv=          0                 tcj=          0 1/K     
        tcjsw=          0 1/K          tcjswg=          0 1/K     
          tpb=          0 V/K           tpbsw=          0 V/K     
       tpbswg=          0 V/K             llc=1.21422e-014         
          lwc=          0                lwlc=-2.88567e-022         
          wlc=          0                 wwc=-2.00971e-016         
         wwlc=-1.50178e-021                tnom=     300.15 K       
          kt1=  -0.316608 V              kt1l=          0         
          kt2= -0.0446082                 ute=   -1.60061         
          ua1=4.20288e-011 m/V             ub1=   3.8e-019 (m/V)^2 
          uc1=   2.8e-011 m/V^2            at=        500 m/s     
          prt=   -271.264         
          using Berkeley noise model       noiMod=          1         
         noia=     1e+020                noib=      50000         
         noic=  -1.4e-012                  em=   4.1e+007         
           ef=          1                  af=          1         
           kf=          0              gdsnoi=-1.23457e-029         
          using Hspice diodes            using ACM 
          acm=         3                 hdif=  3.2e-007 meter    
         ldif=         0 meter             js=    1e-005 amp/m^2  
          jsw=  5.2e-011 amp/m            xti=         0          
            n=         1                   cj=0.000767317 f/m^2    
           mj=  0.329933                   pb=  0.713124 V        
         cjsw=1.08867e-010 f/m             mjsw=  0.203671          
          php=  0.434706 V               pbsw (not used)           
       cjgate=  2.9e-010 f/m            cjswg (not used)           
        mjswg (not used)                 pbswg (not used)           
 

 

 **warning** the following singular supplies were terminated to 1 meg resistor 
   supply       node1            node2
  vac1                    0:ac_1             defined in subckt 0                     0:0                defined in subckt 0               
      
 **info** set option symb=1 internally to help for convergence.
 *****************************************************************
 ******  option summary
 ******
 runlvl  = 6         bypass  = 2         
  Opening plot unit= 79
 file=c:\for_hspice_code\project_file\hspice_on_vs_code\project\op amp\slew_rat

1****** HSPICE -- D-2010.03-SP2 32-BIT (Aug 26 2010) winnt ******               
 ******  
 ****

  ******  operating point information tnom=  25.000 temp=  25.000 *****
 ***** operating point status is all       simulation time is     0.     
    node    =voltage      node    =voltage      node    =voltage

 +0:1       =   2.2737  0:ac_1    =   0.      0:vdd     =   3.3000 
 +0:vin2    =   2.0000  0:vout    =   1.9999  0:vss     =   0.     
 +1:2       =   2.9439  1:3       = 843.5559m 1:4       = 826.8956m
 +1:5       =   1.9999 


 ****  voltage sources

 subckt                                              
 element  0:vdd      0:vss      0:vin2     0:vac1    
  volts      3.3000     0.         2.0000     0.     
  current  -48.6570u   47.1570u    0.         0.     
  power    160.5680u    0.         0.         0.     

     total voltage source power dissipation=  160.5680u       watts



 ***** current sources

 subckt             
 element  0:ibias   
  volts      2.2737 
  current    1.5000u
  power     -3.4106u


     total current source power dissipation=  -3.4106u       watts

 **** resistors

 subckt   x1         x1        
 element  1:rz       1:rl      
  r value   13.0000k  400.0000k
  v drop     0.         1.9999 
  current    0.         4.9998u
  power      0.         9.9993u



 **** mosfets


 subckt   x1         x1         x1         x1         x1         x1        
 element  1:m1       1:m2       1:m3       1:m4       1:m5       1:m6      
 model    0:p_33.1   0:p_33.1   0:n_33.1   0:n_33.1   0:n_33.1   0:p_33.1  
 region     Saturati   Saturati   Saturati   Saturati   Saturati   Saturati
  id        -6.6863u   -6.6837u    6.6863u    6.6838u   28.7870u   -1.5000u
  ibs      8.634e-22  8.631e-22 -1.569e-21 -1.568e-21 -6.754e-21  1.804e-22
  ibd      847.5736a  854.2967a -231.9449a -227.3639a   -2.7495f  192.9074a
  vgs     -943.9876m -943.9202m  843.5559m  843.5559m  826.8956m   -1.0263 
  vds       -2.1004    -2.1170   843.5559m  826.8956m    1.9999    -1.0263 
  vbs        0.         0.         0.         0.         0.         0.     
  vth     -733.6257m -733.6244m  688.3119m  688.3180m  687.8885m -725.7806m
  vdsat   -186.4312m -186.3877m  149.6927m  149.6888m  139.4756m -247.6787m
  vod     -210.3619m -210.2958m  155.2440m  155.2379m  139.0071m -300.5011m
  beta     322.4592u  322.4599u  539.3163u  539.3162u    2.6974m   39.9132u
  gam eff  664.3077m  664.3077m  761.1513m  761.1513m  761.1513m  664.3077m
  gm        52.4294u   52.4191u   65.8270u   65.8051u  300.9287u    9.0138u
  gds       59.6432n   59.4876n  150.9597n  153.8178n  423.6930n    6.8204n
  gmb       23.2116u   23.2073u   21.0087u   21.0019u   96.4186u    3.9783u
  cdtot     10.2294f   10.2115f    3.6686f    3.6764f   16.5796f    5.4027f
  cgtot     35.3135f   35.3134f   14.7491f   14.7493f   73.5244f   64.4622f
  cstot     49.3059f   49.3057f   17.3875f   17.3873f   86.6084f   81.3603f
  cbtot     32.6653f   32.6475f   10.6142f   10.6218f   51.3543f   36.7225f
  cgs       29.9538f   29.9535f   11.6909f   11.6911f   58.1177f   58.7795f
  cgd        3.0031f    3.0031f    1.2303f    1.2304f    6.1448f    1.5817f



 subckt   x1         x1        
 element  1:m7       1:m8      
 model    0:p_33.1   0:p_33.1  
 region     Saturati   Saturati
  id       -13.3701u  -33.7869u
  ibs      1.608e-21  4.065e-21
  ibd      602.3813a    5.4983f
  vgs       -1.0263    -1.0263 
  vds     -356.0798m   -1.3001 
  vbs        0.         0.     
  vth     -725.7806m -725.7807m
  vdsat   -247.6787m -247.6787m
  vod     -300.5011m -300.5011m
  beta     359.2187u  898.0467u
  gam eff  664.3077m  664.3077m
  gm        79.6915u  203.0270u
  gds        1.0854u  120.0513n
  gmb       35.1973u   89.6097u
  cdtot     70.6853f  116.2522f
  cgtot    585.8640f    1.4502p
  cstot    730.6141f    1.8308p
  cbtot    339.4585f  821.2172f
  cgs      530.9140f    1.3223p
  cgd       20.3366f   35.4462f




          ***** job concluded
1****** HSPICE -- D-2010.03-SP2 32-BIT (Aug 26 2010) winnt ******               
 ******  
 ****

  ******  job statistics summary tnom=  25.000 temp=  25.000 *****

  ******  HSPICE Threads Information  ******

  Command Line Threads Count                  :     1
  Available CPU Count                         :     8
  Actual Model Evaluation(Load) Threads Count :     1
  Actual Solver Threads Count                 :     1


  ******  Circuit Statistics  ******
  # nodes       =      27 # elements   =      18
  # resistors   =       3 # capacitors =       2 # inductors   =       0
  # mutual_inds =       0 # vccs       =       0 # vcvs        =       0
  # cccs        =       0 # ccvs       =       0 # volt_srcs   =       4
  # curr_srcs   =       1 # diodes     =       0 # bjts        =       0
  # jfets       =       0 # mosfets    =       8 # U elements  =       0
  # T elements  =       0 # W elements =       0 # B elements  =       0
  # S elements  =       0 # P elements =       0 # va device   =       0


  ******  Runtime Statistics (seconds)  ******

  analysis           time    # points   tot. iter  conv.iter
  op point           0.01           1          71
  transient          0.05      150001         274         117 rev=         2
  readin             0.12
  errchk             0.02
  setup              0.02
  output             0.00


           total memory used          325  kbytes
           total cpu time            0.26 seconds
           total elapsed time        0.33 seconds
           job started at     23:20:15 12/18/2022
           job ended   at     23:20:15 12/18/2022


